! Created with skrf 1.11.0 (http://scikit-rf.org).
! Data is not renormalized
! S-parameter uses the pseudo definition
# GHz S RI R
!freq ReS11 ImS11 ReS21 ImS21 ReS12 ImS12 ReS22 ImS22
3.3 0.05138163253183237 -0.0014337447056912412 -0.48646931260600457 -0.6416380253439394 -0.4864693126060061 -0.6416380253439401 0.03027682691596299 -0.04546631247558457
! Port Impedance 50.00000000000000 0.00000000000000 50.00000000000000 0.00000000000000
3.3085 0.04494531165086078 0.0009295841253346327 -0.523999638030695 -0.611536498666374 -0.5239996380306975 -0.6115364986663742 0.02157194382209542 -0.043720524877163824
! Port Impedance 50.00000000000000 0.00000000000000 50.00000000000000 0.00000000000000
3.317 0.03900886895486222 0.003843618893204874 -0.5596312231519582 -0.5792809606742066 -0.5596312231519608 -0.579280960674207 0.01346052631457181 -0.04079878864153625
! Port Impedance 50.00000000000000 0.00000000000000 50.00000000000000 0.00000000000000
3.3255 0.033306203597808455 0.007256374082293002 -0.5931967150431429 -0.5449020475072207 -0.5931967150431455 -0.5449020475072222 0.0058149652269440496 -0.03695452197992288
! Port Impedance 50.00000000000000 0.00000000000000 50.00000000000000 0.00000000000000
3.334 0.028100901030515532 0.011087399573096356 -0.6246242896747365 -0.5085642916728383 -0.624624289674739 -0.5085642916728392 -0.0010601827846474206 -0.03218242114608465
! Port Impedance 50.00000000000000 0.00000000000000 50.00000000000000 0.00000000000000
3.3425 0.023472872695182567 0.015153030477219666 -0.653798000981544 -0.4704634020241574 -0.6537980009815471 -0.4704634020241574 -0.006974850767899867 -0.02669546706528833
! Port Impedance 50.00000000000000 0.00000000000000 50.00000000000000 0.00000000000000
3.351 0.019135553035962653 0.01928478959223788 -0.6805872109799163 -0.4307424133993837 -0.6805872109799227 -0.43074241339938474 -0.012082544360280851 -0.020846948420517996
! Port Impedance 50.00000000000000 0.00000000000000 50.00000000000000 0.00000000000000
3.3595 0.015304926329539966 0.023622922201483765 -0.7049359616503769 -0.3894093681532041 -0.7049359616503792 -0.38940936815320504 -0.01624100364261481 -0.014511638005347703
! Port Impedance 50.00000000000000 0.00000000000000 50.00000000000000 0.00000000000000
3.368 0.011686541650876434 0.028089131725157666 -0.7266323829285876 -0.34665048463793074 -0.7266323829285898 -0.34665048463793113 -0.01966574905472085 -0.007964273047474804
! Port Impedance 50.00000000000000 0.00000000000000 50.00000000000000 0.00000000000000
3.3765 0.008826157565872263 0.03281487979244606 -0.7457342292031339 -0.3028753121925674 -0.7457342292031367 -0.30287531219256875 -0.021948592929495202 -0.000979406577605815
! Port Impedance 50.00000000000000 0.00000000000000 50.00000000000000 0.00000000000000
3.385 0.006376667548831424 0.0375455631462989 -0.7622534635361764 -0.25819789930848225 -0.7622534635361791 -0.2581978993084837 -0.02333336904311338 0.006025747258840711
! Port Impedance 50.00000000000000 0.00000000000000 50.00000000000000 0.00000000000000
3.3935 0.004451335115832394 0.04227245511027558 -0.775931277669067 -0.21262104528742695 -0.7759312776690703 -0.2126210452874279 -0.023759107660133935 0.012988746159660142
! Port Impedance 50.00000000000000 0.00000000000000 50.00000000000000 0.00000000000000
3.402 0.0031947768646903006 0.04697591588058658 -0.786641942938831 -0.16629013562841796 -0.7866419429388349 -0.16629013562841768 -0.023124514508413848 0.019857451964182475
! Port Impedance 50.00000000000000 0.00000000000000 50.00000000000000 0.00000000000000
3.4105 0.0023265296236181705 0.051464445571673116 -0.7947442985602405 -0.11955654880974428 -0.794744298560243 -0.11955654880974548 -0.021679765802361247 0.02633715076101813
! Port Impedance 50.00000000000000 0.00000000000000 50.00000000000000 0.00000000000000
3.419 0.0020886099499573376 0.05594148746146686 -0.8001189409352554 -0.07232435675055127 -0.800118940935257 -0.07232435675055243 -0.019289140932548424 0.032601890359583954
! Port Impedance 50.00000000000000 0.00000000000000 50.00000000000000 0.00000000000000
3.4275 0.002509037289602369 0.06012186576487474 -0.8026707433044096 -0.02506584609774801 -0.802670743304412 -0.025065846097747712 -0.01593112203655368 0.03833246077943247
! Port Impedance 50.00000000000000 0.00000000000000 50.00000000000000 0.00000000000000
3.436 0.0033612265948853724 0.06429102830612943 -0.8020670723943458 0.022289542106500703 -0.802067072394348 0.022289542106502223 -0.011921676000757704 0.04370624733060781
! Port Impedance 50.00000000000000 0.00000000000000 50.00000000000000 0.00000000000000
3.4445 0.004697642357536727 0.06835985344990703 -0.7988350140239342 0.06946211863575776 -0.7988350140239362 0.06946211863575896 -0.007261300166943211 0.04863542904062918
! Port Impedance 50.00000000000000 0.00000000000000 50.00000000000000 0.00000000000000
3.453 0.00651781826479104 0.0721897737356421 -0.7929276162218926 0.11615604283032414 -0.7929276162218952 0.11615604283032444 -0.0019914913029718123 0.05296127250108537
! Port Impedance 50.00000000000000 0.00000000000000 50.00000000000000 0.00000000000000
3.4615 0.008690044299703601 0.07569939114372891 -0.7840454871543543 0.16218883151726102 -0.7840454871543576 0.1621888315172622 0.0037091409616580714 0.05656638637082147
! Port Impedance 50.00000000000000 0.00000000000000 50.00000000000000 0.00000000000000
3.47 0.011120224008529704 0.07896376376682948 -0.7728359059601154 0.2079686910658971 -0.7728359059601188 0.20796869106589846 0.00965677273962069 0.05953513693316861
! Port Impedance 50.00000000000000 0.00000000000000 50.00000000000000 0.00000000000000
3.4785 0.014072189179378494 0.08178645592041593 -0.7589607522583149 0.25272158974120656 -0.7589607522583145 0.252721589741208 0.016045173746445842 0.061673426274171626
! Port Impedance 50.00000000000000 0.00000000000000 50.00000000000000 0.00000000000000
3.487 0.017306384143104907 0.08434926364776646 -0.7424956155645137 0.2965531616265074 -0.7424956155645132 0.2965531616265083 0.02261123169441062 0.06316872966920078
! Port Impedance 50.00000000000000 0.00000000000000 50.00000000000000 0.00000000000000
3.4955 0.020658441455835404 0.08649682592976136 -0.7232963777920728 0.3391282230959553 -0.7232963777920726 0.33912822309595614 0.029143600022338782 0.06388993953183203
! Port Impedance 50.00000000000000 0.00000000000000 50.00000000000000 0.00000000000000
3.504 0.024306379352561712 0.08827175083949043 -0.7016504270237683 0.38046908333639146 -0.7016504270237679 0.3804690833363922 0.03576471389390842 0.06391059591954713
! Port Impedance 50.00000000000000 0.00000000000000 50.00000000000000 0.00000000000000
3.5125 0.028316837233818577 0.08963424252161782 -0.6777840712506589 0.4205418578572322 -0.6777840712506585 0.4205418578572328 0.04249482125028958 0.06321408314361471
! Port Impedance 50.00000000000000 0.00000000000000 50.00000000000000 0.00000000000000
3.521 0.032437822763278966 0.09049295742823862 -0.6517568258362503 0.4591005003196041 -0.6517568258362506 0.4591005003196046 0.04904785910627137 0.061756277480215484
! Port Impedance 50.00000000000000 0.00000000000000 50.00000000000000 0.00000000000000
3.5295 0.0365378745469488 0.09090092141877078 -0.623785462524011 0.49615226858203587 -0.6237854625240105 0.4961522685820365 0.05526858791174717 0.059639719686456864
! Port Impedance 50.00000000000000 0.00000000000000 50.00000000000000 0.00000000000000
3.538 0.04090676127050773 0.09069203188109373 -0.593329110532937 0.5312133013958723 -0.593329110532935 0.5312133013958723 0.06134329939387219 0.056716204617204634
! Port Impedance 50.00000000000000 0.00000000000000 50.00000000000000 0.00000000000000
3.5465 0.04540880920543392 0.09022092391970052 -0.5610231341654006 0.5643250331892218 -0.561023134165398 0.5643250331892213 0.06715520908322666 0.05340773528713225
! Port Impedance 50.00000000000000 0.00000000000000 50.00000000000000 0.00000000000000
3.555 0.049935335048802806 0.08914401493363694 -0.5270018223448607 0.5955483458549926 -0.5270018223448588 0.5955483458549925 0.07258042645531547 0.04942309640401779
! Port Impedance 50.00000000000000 0.00000000000000 50.00000000000000 0.00000000000000
3.5635 0.05442774208803864 0.0875430702868731 -0.4913526254936758 0.6248485672333539 -0.4913526254936739 0.6248485672333541 0.0775605704112799 0.04488905826456632
! Port Impedance 50.00000000000000 0.00000000000000 50.00000000000000 0.00000000000000
3.572 0.05889549239882928 0.08560329701611236 -0.45412934929348875 0.652087613385257 -0.4541293492934859 0.6520876133852567 0.08213303193667855 0.04001726581758584
! Port Impedance 50.00000000000000 0.00000000000000 50.00000000000000 0.00000000000000
3.5805 0.0633858173198355 0.0832213454437939 -0.4153607053296318 0.6770256967733637 -0.4153607053296307 0.677025696773363 0.08634048905340706 0.03474217845167077
! Port Impedance 50.00000000000000 0.00000000000000 50.00000000000000 0.00000000000000
3.589 0.06747330324017348 0.08042436597581955 -0.37520542273253166 0.6995221576359802 -0.3752054227325309 0.6995221576359797 0.08977628214195235 0.02923784241760959
! Port Impedance 50.00000000000000 0.00000000000000 50.00000000000000 0.00000000000000
3.5975 0.07162622970779849 0.07700992390488018 -0.3339165627557224 0.7196218097750027 -0.33391656275572074 0.7196218097750018 0.09282791253140492 0.02323819053965553
! Port Impedance 50.00000000000000 0.00000000000000 50.00000000000000 0.00000000000000
3.606 0.07550405763658324 0.07343874820181426 -0.2916048606734962 0.7373431872804047 -0.2916048606734942 0.7373431872804022 0.09534078254987051 0.017277222770129518
! Port Impedance 50.00000000000000 0.00000000000000 50.00000000000000 0.00000000000000
3.6145 0.07907517003866303 0.06949841876478391 -0.24819521996465246 0.7525217550946983 -0.24819521996465133 0.752521755094696 0.09724826849106923 0.011217734908629701
! Port Impedance 50.00000000000000 0.00000000000000 50.00000000000000 0.00000000000000
3.623 0.0823831329180222 0.06503403000402481 -0.20401990636952685 0.7652168966064931 -0.20401990636952624 0.765216896606491 0.09854942730366661 0.0049564489606618994
! Port Impedance 50.00000000000000 0.00000000000000 50.00000000000000 0.00000000000000
3.6315 0.0854283307706723 0.060123126420050674 -0.15948286336119674 0.7756176162451974 -0.1594828633611958 0.7756176162451951 0.09930878635808245 -0.0014541628065444488
! Port Impedance 50.00000000000000 0.00000000000000 50.00000000000000 0.00000000000000
3.64 0.08806414888711131 0.05506358869388457 -0.11447634155659074 0.7834309947146157 -0.11447634155659002 0.7834309947146137 0.09953433906010047 -0.007676179929850892
! Port Impedance 50.00000000000000 0.00000000000000 50.00000000000000 0.00000000000000
3.6485 0.09038968484052279 0.04965823083259683 -0.06889123456898764 0.7884898044615682 -0.06889123456898714 0.788489804461565 0.0992471544019468 -0.013876042514974618
! Port Impedance 50.00000000000000 0.00000000000000 50.00000000000000 0.00000000000000
3.657 0.09235071297518012 0.04389570590798067 -0.02322810930773738 0.7907000907396149 -0.023228109307736222 0.7907000907396118 0.09843781817385969 -0.020056827597863702
! Port Impedance 50.00000000000000 0.00000000000000 50.00000000000000 0.00000000000000
3.6655 0.0940332273755264 0.03773920810461632 0.022441488951608024 0.7904760284841207 0.02244148895160924 0.790476028484117 0.09716326356854774 -0.02627716558521649
! Port Impedance 50.00000000000000 0.00000000000000 50.00000000000000 0.00000000000000
3.674 0.09508736873274147 0.031488250944063274 0.06804581424107023 0.7876228486846297 0.06804581424107096 0.7876228486846255 0.09530519778222836 -0.032124030311758714
! Port Impedance 50.00000000000000 0.00000000000000 50.00000000000000 0.00000000000000
3.6825 0.09550744820732658 0.025184017227950363 0.11337487144148473 0.7821433208451647 0.11337487144148492 0.7821433208451601 0.09292055914636964 -0.03755961222047123
! Port Impedance 50.00000000000000 0.00000000000000 50.00000000000000 0.00000000000000
3.691 0.09568030394325208 0.018534607976838615 0.15824333100025584 0.7744036765920937 0.158243331000256 0.7744036765920904 0.09018784839949502 -0.043011148676064856
! Port Impedance 50.00000000000000 0.00000000000000 50.00000000000000 0.00000000000000
3.6995 0.09540893081184859 0.012165912377846451 0.2028289114850755 0.7638829613870186 0.20282891148507615 0.7638829613870158 0.08730758679189222 -0.04788388552534587
! Port Impedance 50.00000000000000 0.00000000000000 50.00000000000000 0.00000000000000
3.708 0.09474680336911429 0.0055366164583478435 0.24641192659336217 0.7505995193327591 0.24641192659336178 0.7505995193327561 0.08404093370839366 -0.052668308123243475
! Port Impedance 50.00000000000000 0.00000000000000 50.00000000000000 0.00000000000000
3.7165 0.09368275284088645 -0.0010905315283054949 0.2892171938703136 0.7348052167183828 0.2892171938703138 0.7348052167183801 0.08053189416774031 -0.05716350192304136
! Port Impedance 50.00000000000000 0.00000000000000 50.00000000000000 0.00000000000000
3.725 0.09196611606858736 -0.00781864431045463 0.33098238640432115 0.7166428189505492 0.3309823864043216 0.716642818950547 0.07654056190129699 -0.06131040746099181
! Port Impedance 50.00000000000000 0.00000000000000 50.00000000000000 0.00000000000000
3.7335 0.08976445260054916 -0.014499612994685818 0.37174458916732406 0.6963057689077686 0.3717445891673237 0.6963057689077664 0.07228610966417251 -0.06509292891138317
! Port Impedance 50.00000000000000 0.00000000000000 50.00000000000000 0.00000000000000
3.742 0.08723853825958999 -0.020967263317454795 0.41148319000572803 0.6738167096350707 0.4114831900057272 0.6738167096350678 0.06800429198865791 -0.06852227221302747
! Port Impedance 50.00000000000000 0.00000000000000 50.00000000000000 0.00000000000000
3.7505 0.08410517964269232 -0.02719955603963977 0.4497669588777877 0.6489914213651106 0.4497669588777879 0.6489914213651081 0.06351460051559371 -0.07143947911827157
! Port Impedance 50.00000000000000 0.00000000000000 50.00000000000000 0.00000000000000
3.759 0.08049542534095427 -0.033110365081708656 0.4864033599215406 0.6214809228717452 0.48640335992153994 0.6214809228717425 0.05897875450902114 -0.07390246072702573
! Port Impedance 50.00000000000000 0.00000000000000 50.00000000000000 0.00000000000000
3.7675 0.07700032396576513 -0.038756830090366116 0.5212903278147143 0.5921783295268228 0.5212903278147133 0.5921783295268211 0.05470377059396205 -0.07633241638606549
! Port Impedance 50.00000000000000 0.00000000000000 50.00000000000000 0.00000000000000
3.776 0.07302601444028602 -0.04435487073185765 0.5542979778553676 0.5609711594285747 0.5542979778553678 0.5609711594285721 0.05014472301967818 -0.07849522241063984
! Port Impedance 50.00000000000000 0.00000000000000 50.00000000000000 0.00000000000000
3.7845 0.0685580731042378 -0.050015418784012514 0.5855708215644684 0.5280648433831825 0.5855708215644686 0.5280648433831798 0.04521478941050847 -0.08042397292340238
! Port Impedance 50.00000000000000 0.00000000000000 50.00000000000000 0.00000000000000
3.793 0.06358558544930584 -0.05531140665210112 0.6150381785213564 0.4934222391281392 0.6150381785213554 0.4934222391281374 0.040209505848442136 -0.08185457273680911
! Port Impedance 50.00000000000000 0.00000000000000 50.00000000000000 0.00000000000000
3.8015 0.058146312625828415 -0.05976708409530293 0.6424633223385047 0.45695629602050125 0.6424633223385039 0.4569562960205001 0.035499467999586816 -0.08259096821246638
! Port Impedance 50.00000000000000 0.00000000000000 50.00000000000000 0.00000000000000
3.81 0.052471796122706055 -0.06407546938975263 0.6680024600116178 0.4190384073695429 0.668002460011617 0.4190384073695422 0.030713150981581432 -0.08316089159935827
! Port Impedance 50.00000000000000 0.00000000000000 50.00000000000000 0.00000000000000
3.8185 0.04683790565992884 -0.06790513461820319 0.6907210170403829 0.3797938087598262 0.6907210170403826 0.37979380875982494 0.026155094324190817 -0.08361205137019197
! Port Impedance 50.00000000000000 0.00000000000000 50.00000000000000 0.00000000000000
3.827 0.04110445326498633 -0.07148074262678311 0.7112870747643981 0.3391553367621487 0.7112870747643977 0.3391553367621467 0.02161321825102887 -0.0839587488392388
! Port Impedance 50.00000000000000 0.00000000000000 50.00000000000000 0.00000000000000
3.8355 0.03493436280303702 -0.07481353616217029 0.729585272378563 0.2975122489613922 0.7295852723785615 0.29751224896139034 0.01688612269713942 -0.08390751693000272
! Port Impedance 50.00000000000000 0.00000000000000 50.00000000000000 0.00000000000000
3.844 0.028495125875920416 -0.0776640377029946 0.7455365451127398 0.25489887814692663 0.7455365451127379 0.25489887814692536 0.012228036848201389 -0.08346455016898163
! Port Impedance 50.00000000000000 0.00000000000000 50.00000000000000 0.00000000000000
3.8525 0.021944835609811433 -0.07999906982865419 0.759058753574333 0.21135149021532904 0.7590587535743326 0.21135149021532798 0.00773735503535899 -0.08274702883617101
! Port Impedance 50.00000000000000 0.00000000000000 50.00000000000000 0.00000000000000
3.861 0.015280962439333638 -0.08200463974556105 0.7700742445921741 0.16710863575360374 0.7700742445921742 0.16710863575360313 0.0032481717141415027 -0.08182018254934169
! Port Impedance 50.00000000000000 0.00000000000000 50.00000000000000 0.00000000000000
3.8695 0.008674282853800735 -0.08337582123103376 0.7785121794790553 0.1224524538065191 0.7785121794790529 0.122452453806518 -0.0009233491262631025 -0.08065688467302805
! Port Impedance 50.00000000000000 0.00000000000000 50.00000000000000 0.00000000000000
3.878 0.0020354121817821053 -0.08427245510427059 0.7840281091963375 0.07722946701105106 0.7840281091963365 0.07722946701105038 -0.00499304476108949 -0.07925887018608896
! Port Impedance 50.00000000000000 0.00000000000000 50.00000000000000 0.00000000000000
3.8865 -0.004461632346135438 -0.085099284417524 0.7870071301209556 0.03183490945611412 0.787007130120954 0.03183490945611258 -0.009198335534779783 -0.07788008509293212
! Port Impedance 50.00000000000000 0.00000000000000 50.00000000000000 0.00000000000000
3.895 -0.011053059404843375 -0.08557237964836735 0.7873536227685958 -0.013570378788151526 0.7873536227685941 -0.013570378788152962 -0.013392246616254839 -0.07617667160325986
! Port Impedance 50.00000000000000 0.00000000000000 50.00000000000000 0.00000000000000
3.9035 -0.017642543377300906 -0.08551724905163968 0.7850924922690351 -0.058941235127467184 0.7850924922690341 -0.05894123512746762 -0.017378698579042846 -0.07416069373993095
! Port Impedance 50.00000000000000 0.00000000000000 50.00000000000000 0.00000000000000
3.912 -0.024053967731325357 -0.08495105258582686 0.7802903922269291 -0.10419535893673809 0.7802903922269288 -0.10419535893673913 -0.021109847971248537 -0.07199165478461153
! Port Impedance 50.00000000000000 0.00000000000000 50.00000000000000 0.00000000000000
3.9205 -0.030272524431324478 -0.08397060672584324 0.7729744884865666 -0.14905250190382796 0.7729744884865661 -0.1490525019038297 -0.024675753269473733 -0.06966985823316081
! Port Impedance 50.00000000000000 0.00000000000000 50.00000000000000 0.00000000000000
3.929 -0.03611267911174226 -0.0828965906462916 0.7628899329898036 -0.19319657272352045 0.7628899329898017 -0.1931965727235216 -0.028313857609789352 -0.06738739392302966
! Port Impedance 50.00000000000000 0.00000000000000 50.00000000000000 0.00000000000000
3.9375 -0.04202523342368089 -0.08106742026118781 0.7504009538168648 -0.2369482500736374 0.7504009538168631 -0.23694825007363743 -0.031504780135969364 -0.06462096777770597
! Port Impedance 50.00000000000000 0.00000000000000 50.00000000000000 0.00000000000000
3.946 -0.04770837823008344 -0.07904311175715513 0.7354398670631872 -0.2798087657969059 0.735439867063187 -0.2798087657969068 -0.03464335940927674 -0.06172111536212237
! Port Impedance 50.00000000000000 0.00000000000000 50.00000000000000 0.00000000000000
3.9545 -0.05324444819714048 -0.07694150833737587 0.7180474053502457 -0.3217160534546595 0.7180474053502455 -0.3217160534546613 -0.03783589905608784 -0.05861371644581687
